# GHZ S DB R 50.000000000000
0.571000000000 -0.413335694066 150.756419655324
0.572000000000 -0.396058533075 150.560266489671
0.573000000000 -0.388136331990 150.223556708715
0.574000000000 -0.381789499948 149.866059422472
0.575000000000 -0.380398527029 149.470643298555
0.576000000000 -0.382985250021 149.061009107214
0.577000000000 -0.386670567642 148.673704084552
0.578000000000 -0.387943275877 148.288196638488
0.579000000000 -0.387127332841 147.907464939677
0.580000000000 -0.395469057921 147.514372072301
0.581000000000 -0.402660935104 147.179362230869
0.582000000000 -0.411300801198 146.776655824240
0.583000000000 -0.420906783125 146.395871222966
0.584000000000 -0.430944116636 145.990308248207
0.585000000000 -0.432901791350 145.632365814374
0.586000000000 -0.448585651006 145.251616884840
0.587000000000 -0.454345018367 144.875627657613
0.588000000000 -0.460190316617 144.490111904553
0.589000000000 -0.475419976536 144.105532722158
0.590000000000 -0.482413865357 143.732304385226
0.591000000000 -0.490607597212 143.324214171224
0.592000000000 -0.495430080148 142.908629585130
0.593000000000 -0.502521355525 142.508516612950
0.594000000000 -0.516976711863 142.081772088008
0.595000000000 -0.528246955498 141.649550106864
0.596000000000 -0.541154896133 141.204450525774
0.597000000000 -0.547625453875 140.804523548854
0.598000000000 -0.558257639729 140.339818882449
0.599000000000 -0.566369571946 139.907493344068
0.600000000000 -0.576995195829 139.458310427910
0.601000000000 -0.585101077244 138.997435492583
0.602000000000 -0.593817915453 138.520315313262
0.603000000000 -0.601485342718 138.061490177038
0.604000000000 -0.612111380856 137.592778772254
0.605000000000 -0.616144065829 137.118396737506
0.606000000000 -0.630168059756 136.657486648878
0.607000000000 -0.636200831432 136.182872568681
0.608000000000 -0.649747223815 135.708525389432
0.609000000000 -0.654682468117 135.219079050552
0.610000000000 -0.660136353123 134.756241829459
0.611000000000 -0.665908800953 134.261042340507
0.612000000000 -0.668761708323 133.719782111653
0.613000000000 -0.678071301442 133.275146389724
0.614000000000 -0.683304338412 132.769249140336
0.615000000000 -0.687926583271 132.313298343871
0.616000000000 -0.695250520035 131.809502635409
0.617000000000 -0.693863076602 131.319154975450
0.618000000000 -0.701951565055 130.803599833859
0.619000000000 -0.699163547017 130.320532221809
0.620000000000 -0.714523550068 129.887513815555
0.621000000000 -0.712661884131 129.358154024073
0.622000000000 -0.710862579071 128.983373923992
0.623000000000 -0.716414701539 128.456406404748
0.624000000000 -0.710472940600 127.948259746156
0.625000000000 -0.720524362381 127.507402177170
0.626000000000 -0.718157581840 127.083203416666
0.627000000000 -0.718646134554 126.626985870732
0.628000000000 -0.721126807174 126.164162714423
0.629000000000 -0.718425204967 125.748756202010
0.630000000000 -0.715864862285 125.305685846215
0.631000000000 -0.718537174247 124.869735752895
0.632000000000 -0.716236927867 124.439585599059
0.633000000000 -0.718728706336 124.008477505808
0.634000000000 -0.714170840744 123.565010110288
0.635000000000 -0.716906437465 123.157571440665
0.636000000000 -0.714959668891 122.748721988095
0.637000000000 -0.713739151471 122.307549984313
0.638000000000 -0.713387760141 121.917392475770
0.639000000000 -0.714729033218 121.481041767058
0.640000000000 -0.719391281645 121.054719568095
0.641000000000 -0.715553208441 120.692345450189
0.642000000000 -0.710881625724 120.268170200388
0.643000000000 -0.722066526426 119.839618319355
0.644000000000 -0.724980029471 119.460684730735
0.645000000000 -0.729352546599 119.030952624323
0.646000000000 -0.734873278937 118.654241429021
0.647000000000 -0.743268386192 118.233113070697
0.648000000000 -0.750692064189 117.799223021717
0.649000000000 -0.756526036884 117.467808080960
0.650000000000 -0.767125969241 117.096688918426
0.651000000000 -0.775593917973 116.766039210699
0.652000000000 -0.783693240817 116.388452392461
0.653000000000 -0.793035342754 115.972031617176
0.654000000000 -0.798936727217 115.589810040987
0.655000000000 -0.807223838527 115.232525573981
0.656000000000 -0.816518261178 114.809269860208
0.657000000000 -0.826439037434 114.435422345017
0.658000000000 -0.835752617182 114.000569497019
0.659000000000 -0.853149622365 113.592811076413
0.660000000000 -0.865764480553 113.203470705889
0.661000000000 -0.875977845373 112.766770483186
0.662000000000 -0.891700480746 112.338781960095
0.663000000000 -0.910308112890 111.912271229833
0.664000000000 -0.928735976809 111.445271074380
0.665000000000 -0.945839165338 110.991454251584
0.666000000000 -0.969380641483 110.538884450102
0.667000000000 -0.992189322192 110.061286657780
0.668000000000 -1.011069164155 109.652878471605
0.669000000000 -1.032705471404 109.145156309868
0.670000000000 -1.059905921970 108.640430526250
0.671000000000 -1.085367684829 108.123151719511
0.672000000000 -1.107071580451 107.710699129088
0.673000000000 -1.130827180306 107.182631323389
0.674000000000 -1.157922751909 106.638425936894
0.675000000000 -1.191683108713 106.155182930455
0.676000000000 -1.206184327948 105.730498460714
0.677000000000 -1.236265743201 105.260219840837
0.678000000000 -1.243154478321 104.868416927395
0.679000000000 -1.288449332789 104.145893578433
0.680000000000 -1.304332064537 103.630341911832
0.681000000000 -1.328544746692 103.151270522612
0.682000000000 -1.338037133337 102.669126558073
0.683000000000 -1.355966174999 102.131484889503
0.684000000000 -1.381446653448 101.625600325211
0.685000000000 -1.394497736775 101.050284922988
0.686000000000 -1.411625539305 100.572645789076
0.687000000000 -1.430094662235 99.941478724324
0.688000000000 -1.442123922558 99.371682980905
0.689000000000 -1.464634870673 98.791630235556
0.690000000000 -1.469702900745 98.245220028367
0.691000000000 -1.480508149965 97.719130533972
0.692000000000 -1.493849536045 97.192539399232
0.693000000000 -1.502359277553 96.634817424759
0.694000000000 -1.517433093213 96.085083435072
0.695000000000 -1.516995869699 95.500514095326
0.696000000000 -1.531588417576 94.993333108347
0.697000000000 -1.542054811832 94.406393765097
0.698000000000 -1.540033232952 93.891657483364
0.699000000000 -1.546593524935 93.259956147796
0.700000000000 -1.549785709968 92.674295139993
0.701000000000 -1.548038709158 92.175052691729
0.702000000000 -1.550703534575 91.622314648656
0.703000000000 -1.552137808529 91.041867473495
0.704000000000 -1.556354026695 90.466718911131
0.705000000000 -1.557068568683 89.888288301376
0.706000000000 -1.558712049546 89.280620782567
0.707000000000 -1.558953955746 88.650845029806
0.708000000000 -1.569435099296 88.053750046498
0.709000000000 -1.575094963570 87.495883878552
0.710000000000 -1.580500272275 86.871480887746
0.711000000000 -1.601052096232 86.290351281663
0.712000000000 -1.611345447738 85.720373184499
0.713000000000 -1.616834623847 85.194285076239
0.714000000000 -1.633188695751 84.541481992987
0.715000000000 -1.640354874431 84.058412993757
0.716000000000 -1.653974723722 83.479426228913
0.717000000000 -1.677973474900 82.960527375907
0.718000000000 -1.690586874228 82.393424344442
0.719000000000 -1.705919241881 81.805149821940
0.720000000000 -1.728521960012 81.316317374647
0.721000000000 -1.745448507131 80.805624262107
0.722000000000 -1.765390220776 80.276007928589
0.723000000000 -1.794080986832 79.750971955562
0.724000000000 -1.810971280781 79.216397673068
0.725000000000 -1.830514220487 78.713859086085
0.726000000000 -1.859139622201 78.174225801937
0.727000000000 -1.878077399645 77.648125902602
0.728000000000 -1.906389192378 77.116338166846
0.729000000000 -1.930295581359 76.565528608927
0.730000000000 -1.970498466275 76.024356813572
0.731000000000 -2.006766406141 75.433056378267
0.732000000000 -2.040075543564 74.887292054414
0.733000000000 -2.088489373504 74.299877438270
0.734000000000 -2.136234651192 73.777281310726
0.735000000000 -2.181637842694 73.246778202808
0.736000000000 -2.232776708324 72.769203844123
0.737000000000 -2.284232484915 72.264268898796
0.738000000000 -2.329934006675 71.786686884954
0.739000000000 -2.378339669887 71.275663195686
0.740000000000 -2.431583453472 70.834133865818
0.741000000000 -2.484936624585 70.357484219605
0.742000000000 -2.520957224331 69.812017253794
0.743000000000 -2.565845821996 69.320850095606
0.744000000000 -2.605456118608 68.806862107427
0.745000000000 -2.661781544330 68.286789078787
0.746000000000 -2.702977121035 67.810610027255
0.747000000000 -2.745622988583 67.222113207175
0.748000000000 -2.797156322026 66.682668383698
0.749000000000 -2.848646702788 66.132398500243
0.750000000000 -2.893156913859 65.543695523044
0.751000000000 -2.941735205060 64.930083433777
0.752000000000 -2.995273542264 64.350198811396
0.753000000000 -3.046537502535 63.778588384402
0.754000000000 -3.103674769595 63.213761578092
0.755000000000 -3.145907544858 62.620800804103
0.756000000000 -3.201542812712 62.100669102031
0.757000000000 -3.243905794677 61.507432126477
0.758000000000 -3.283896755302 60.916706655491
0.759000000000 -3.318314852837 60.326193279746
0.760000000000 -3.351139995061 59.719810898475
0.761000000000 -3.401178834841 59.074394008530
0.762000000000 -3.439286795582 58.401305186204
0.763000000000 -3.480155627373 57.739660498323
0.764000000000 -3.521249286206 57.029700269153
0.765000000000 -3.563322667161 56.394662700420
0.766000000000 -3.608872874844 55.709266081842
0.767000000000 -3.646207071316 55.004152868090
0.768000000000 -3.687027590192 54.335107792183
0.769000000000 -3.727472648474 53.596312368298
0.770000000000 -3.773089017765 52.895846860786
0.771000000000 -3.821976834639 52.174891662755
0.772000000000 -3.870545833227 51.401842203437
0.773000000000 -3.926856575992 50.718712382869
0.774000000000 -3.985869776190 49.994545390784
0.775000000000 -4.047272154807 49.321145080693
0.776000000000 -4.110652829114 48.668100348075
0.777000000000 -4.165921169858 48.033704009601
0.778000000000 -4.225411433062 47.386679716082
0.779000000000 -4.281197320151 46.790547211871
0.780000000000 -4.344329069591 46.207117593638
0.781000000000 -4.407609918915 45.524608077642
0.782000000000 -4.462786802976 44.923765945917
0.783000000000 -4.531815201760 44.347386546504
0.784000000000 -4.600529579332 43.842716387517
0.785000000000 -4.660524997744 43.353065586309
0.786000000000 -4.721005354554 42.838449311888
0.787000000000 -4.764631744676 42.768954656241
0.788000000000 -4.838722704773 41.864514683584
0.789000000000 -4.886116529216 41.389742535480
0.790000000000 -4.931448050113 40.917192541348
0.791000000000 -4.974443717057 40.437807442728
0.792000000000 -5.008064970380 39.952321798616
0.793000000000 -5.046431304394 39.296503771877
0.794000000000 -5.126588935948 38.792497211003
0.795000000000 -5.172756797183 38.199234521161
0.796000000000 -5.229705343395 37.729421295030
0.797000000000 -5.283025059319 37.246812140870
0.798000000000 -5.311352861403 36.713120908505
0.799000000000 -5.358555098444 36.075930723172
0.800000000000 -5.407335925009 35.563094563315
0.801000000000 -5.463207802023 34.801407762051
0.802000000000 -5.493251326293 34.152985163387
0.803000000000 -5.580741976134 33.657106911299
0.804000000000 -5.593870791042 33.024004928880
0.805000000000 -5.645546552752 32.081137915637
0.806000000000 -5.779159695996 31.372104883214
0.807000000000 -5.863321714398 30.462641736335
0.808000000000 -5.942670836631 29.998739640499
0.809000000000 -5.967559683132 28.900108412663
0.810000000000 -6.059667241318 28.498063997020
0.811000000000 -6.175161275575 27.503176099706
0.812000000000 -6.258549638803 26.464118583564
0.813000000000 -6.366890084664 25.889584345216
0.814000000000 -6.486228549122 25.158115301599
0.815000000000 -6.603105981832 24.402730859708
0.816000000000 -6.684974977390 23.509241128631
0.817000000000 -6.767443072323 22.827374129647
0.818000000000 -6.892322882980 21.654653382909
0.819000000000 -7.049214839729 21.122859904523
0.820000000000 -7.159386566381 20.386984680872
0.821000000000 -7.303076328236 19.513535381578
0.822000000000 -7.443782424255 18.659949283900
0.823000000000 -7.572283167439 17.769988585458
0.824000000000 -7.755239472396 17.169686282586
0.825000000000 -7.926479021279 16.328329736605
0.826000000000 -8.070534957698 15.787971587612
0.827000000000 -8.253425212323 15.218394782360
0.828000000000 -8.408004816422 14.650249283572
0.829000000000 -8.604532648786 14.249381452982
0.830000000000 -8.748286611253 13.746354006042
0.831000000000 -8.924573154356 13.476952492366
0.832000000000 -9.078298469151 13.153181691998
0.833000000000 -9.251918916664 12.897956828401
0.834000000000 -9.383264462168 12.784792127097
0.835000000000 -9.517340611222 12.355921026319
0.836000000000 -9.633651380089 12.436215029174
0.837000000000 -9.749970973715 12.087948331539
0.838000000000 -9.896129627559 11.945548982099
0.839000000000 -10.018426460637 11.764749958803
0.840000000000 -10.145622114555 11.576205558390
0.841000000000 -10.260694856008 11.540671225434
0.842000000000 -10.365983779318 11.416975115925
0.843000000000 -10.463105455143 11.340842752486
0.844000000000 -10.555529066065 11.195328857909
0.845000000000 -10.636610912651 11.035287692079
0.846000000000 -10.718397116681 10.890765370029
0.847000000000 -10.798546606438 10.704405176458
0.848000000000 -10.866977725092 10.449756696481
0.849000000000 -10.935310465058 10.181562198750
0.850000000000 -10.993044912115 9.893534856503
0.851000000000 -11.041371386759 9.528746960420
0.852000000000 -11.099353259632 9.042898562361
0.853000000000 -11.142461607139 8.512566575538
0.854000000000 -11.199507008136 7.922121364934
0.855000000000 -11.270525587918 7.280669692394
0.856000000000 -11.328936584686 6.436366772921
0.857000000000 -11.387786143219 5.724820314543
0.858000000000 -11.463324803144 4.832248426687
0.859000000000 -11.538236489516 3.843145159733
0.860000000000 -11.634930466644 2.777690946906
0.861000000000 -11.747609239477 1.702928986835
0.862000000000 -11.865883345458 0.513622703755
0.863000000000 -11.998413614020 -0.619324143553
0.864000000000 -12.120931613321 -1.777565427166
0.865000000000 -12.282647336777 -3.031401207612
0.866000000000 -12.452909561524 -4.414973181141
0.867000000000 -12.635235115114 -5.812001656853
0.868000000000 -12.847016160395 -7.272362134334
0.869000000000 -13.095191428550 -8.755630728508
0.870000000000 -13.355524441493 -10.078234800841
0.871000000000 -13.650848166771 -11.393754056405
0.872000000000 -13.959222206675 -12.620084331293
0.873000000000 -14.278129746366 -13.783281697142
0.874000000000 -14.606554697981 -14.885384125356
0.875000000000 -14.939491665045 -15.895782217270
0.876000000000 -15.296331861738 -16.966777651956
0.877000000000 -15.678908020660 -18.005896661365
0.878000000000 -16.083140682149 -19.127506888988
0.879000000000 -16.527790351366 -20.200797230905
0.880000000000 -17.012515984784 -21.156468966602
0.881000000000 -17.530707181531 -21.802521621092
0.882000000000 -18.073792916812 -22.378237223111
0.883000000000 -18.647662171571 -22.407245729875
0.884000000000 -19.216345748389 -22.398348791368
0.885000000000 -19.764714288628 -21.988962542689
0.886000000000 -20.340119941037 -21.597166979401
0.887000000000 -20.931144953041 -21.076355764061
0.888000000000 -21.537047999652 -20.382051487542
0.889000000000 -22.177814692047 -19.528777926838
0.890000000000 -22.853130044268 -18.002699541257
0.891000000000 -23.553258786737 -16.298785412001
0.892000000000 -24.258814508118 -13.757805385640
0.893000000000 -24.961431364448 -10.437224125822
0.894000000000 -25.634932084288 -6.281398722244
0.895000000000 -26.129764359263 -1.262596892754
0.896000000000 -26.511397396880 4.375790014647
0.897000000000 -26.680396503741 10.025263045391
0.898000000000 -26.587428511463 15.445737492596
0.899000000000 -26.392439799230 19.453198890846
0.900000000000 -26.113480600835 21.960741170254
0.901000000000 -25.935694183456 23.828765632658
0.902000000000 -25.781011059104 25.011121587731
0.903000000000 -25.697853862938 25.911333115366
0.904000000000 -25.677756189896 26.254793294654
0.905000000000 -25.668669259524 26.271341558483
0.906000000000 -25.786344098306 26.235490321641
0.907000000000 -25.915813470699 25.878102479744
0.908000000000 -26.175474630745 25.417036983384
0.909000000000 -26.481703358529 24.861981282522
0.910000000000 -26.900032889072 24.622120087072
0.911000000000 -27.378458594835 24.430787670642
0.912000000000 -27.948924556178 24.210661838548
0.913000000000 -28.661931419660 24.333014482341
0.914000000000 -29.526712271741 24.544465450195
0.915000000000 -30.532367190800 25.736643028705
0.916000000000 -31.741345724695 28.069620067673
0.917000000000 -33.284757327801 32.178791381639
0.918000000000 -34.957806040010 39.390696781039
0.919000000000 -36.862220143780 51.998894650929
0.920000000000 -38.212612808834 72.688280715685
0.921000000000 -38.039338329530 96.898326033141
0.922000000000 -36.388419055248 117.235024568200
0.923000000000 -34.099562467023 129.239085909893
0.924000000000 -32.055698816592 135.885992059048
0.925000000000 -30.333524646717 140.088894382391
0.926000000000 -28.766296781770 143.503575820937
0.927000000000 -27.372098061775 142.635991521792
0.928000000000 -26.352168751686 142.180213950479
0.929000000000 -25.968200564701 138.369438823114
0.930000000000 -23.916780884590 139.682345901248
0.931000000000 -23.664712538099 139.942186361495
0.932000000000 -22.797389157763 138.100102482273
0.933000000000 -22.033481527238 136.217709060561
0.934000000000 -21.328562506889 134.890242274537
0.935000000000 -20.819248896524 133.077176729956
0.936000000000 -20.422645246873 130.210681750799
0.937000000000 -19.903916260607 128.855032753364
0.938000000000 -19.570359928367 127.562187992760
0.939000000000 -19.343696457062 126.199441571175
0.940000000000 -18.800225686810 122.765777436561
0.941000000000 -18.472892937375 122.387929325048
0.942000000000 -18.336804273910 121.144984639358
0.943000000000 -18.181296239942 120.914683256266
0.944000000000 -17.974284201868 118.061033629296
0.945000000000 -17.732128187427 117.532735982026
0.946000000000 -17.466413471458 116.363314583481
0.947000000000 -17.390516511703 115.016398746234
0.948000000000 -17.202905970585 113.635727660210
0.949000000000 -17.159351233031 112.426615683684
0.950000000000 -17.117982093655 111.517585233384
0.951000000000 -17.087613045623 110.906141260651
0.952000000000 -16.977091085969 110.212834799357
0.953000000000 -16.987656100939 110.260177029144
0.954000000000 -16.902528912518 109.561255077502
0.955000000000 -16.834599648789 109.186526983209
0.956000000000 -16.779447791459 108.914277168967
0.957000000000 -16.745768601685 108.327487122205
0.958000000000 -16.704575721237 107.895380193959
0.959000000000 -16.495245155033 107.964424712030
0.960000000000 -16.593648009133 107.581359441666
0.961000000000 -16.592716199480 107.579024264051
0.962000000000 -16.569474540873 107.671148298288
0.963000000000 -16.541573595901 107.989292227674
0.964000000000 -16.483757491228 108.310813279825
0.965000000000 -16.415433023157 108.685445698692
0.966000000000 -16.335225049352 108.946665678711
0.967000000000 -16.262537767563 109.271292660370
0.968000000000 -16.198748071316 109.555054920976
0.969000000000 -16.126742985368 109.959941980466
0.970000000000 -16.056577191496 110.557042209550
0.971000000000 -15.966223430144 111.255936686466
0.972000000000 -15.840895902133 112.063863748580
0.973000000000 -15.670735306285 112.848476562441
0.974000000000 -15.469935937316 113.402835319977
0.975000000000 -15.256324819988 113.778489236062
0.976000000000 -15.043039642180 113.994084727353
0.977000000000 -14.823879107455 114.062294384855
0.978000000000 -14.620061523374 113.962133223501
0.979000000000 -14.421663869096 113.783404138751
0.980000000000 -14.236738772935 113.462229589808
0.981000000000 -14.062823974624 113.083868268566
0.982000000000 -13.897235607665 112.712225365486
0.983000000000 -13.742706979951 112.262583584190
0.984000000000 -13.600226246642 111.794737171028
0.985000000000 -13.477472446266 111.221618238262
0.986000000000 -13.358589745988 110.666467880508
0.987000000000 -13.260825503536 110.113124737887
