# GHZ S DB R 50.000000000000
0.571000000000 -0.395166343524 145.976630957207
0.572000000000 -0.375235589957 145.813154016876
0.573000000000 -0.366129024297 145.478743669845
0.574000000000 -0.360581968270 145.103137109230
0.575000000000 -0.358164302698 144.711110892304
0.576000000000 -0.361161904719 144.278514391201
0.577000000000 -0.361013464286 143.924289188602
0.578000000000 -0.364660596787 143.539485405585
0.579000000000 -0.364042606385 143.168014363015
0.580000000000 -0.372185030676 142.763748499213
0.581000000000 -0.378654842885 142.396102168223
0.582000000000 -0.387759839366 142.015924158472
0.583000000000 -0.401590821346 141.662678459102
0.584000000000 -0.403847191580 141.253446901199
0.585000000000 -0.409815102378 140.903646172207
0.586000000000 -0.420913593532 140.532543731657
0.587000000000 -0.425822411682 140.126945475056
0.588000000000 -0.435841049277 139.739484216272
0.589000000000 -0.445539786968 139.353755896818
0.590000000000 -0.456404835946 138.971374896568
0.591000000000 -0.464130221284 138.561532448082
0.592000000000 -0.467483051768 138.089536204191
0.593000000000 -0.476755178239 137.693582739447
0.594000000000 -0.489234327298 137.267564878744
0.595000000000 -0.500445979493 136.793532409157
0.596000000000 -0.512204574012 136.345376000972
0.597000000000 -0.520470771817 135.933096027032
0.598000000000 -0.532724506336 135.429349035736
0.599000000000 -0.540295650488 135.002011064700
0.600000000000 -0.552354520521 134.495334721306
0.601000000000 -0.560624837359 134.040001277329
0.602000000000 -0.570351884065 133.542826965203
0.603000000000 -0.579810742062 133.060949953467
0.604000000000 -0.594634868396 132.573831267875
0.605000000000 -0.602862118532 132.053528568048
0.606000000000 -0.612205325756 131.603517299263
0.607000000000 -0.623523580989 131.104044727741
0.608000000000 -0.632846018471 130.588692619183
0.609000000000 -0.635779094049 130.120116717856
0.610000000000 -0.644126995022 129.617991145094
0.611000000000 -0.655917649139 129.120971950212
0.612000000000 -0.658968755641 128.572593472109
0.613000000000 -0.672510020270 128.128075467318
0.614000000000 -0.675074152085 127.591114347214
0.615000000000 -0.680497021455 127.117211672507
0.616000000000 -0.684753739465 126.660296513611
0.617000000000 -0.674156157477 126.088804607436
0.618000000000 -0.685793111822 125.652640284736
0.619000000000 -0.696273356493 125.174561831777
0.620000000000 -0.702519306254 124.688343793817
0.621000000000 -0.700549543537 124.245744020220
0.622000000000 -0.704038692927 123.780554081254
0.623000000000 -0.699374164618 123.328290863298
0.624000000000 -0.694192449004 122.781379333572
0.625000000000 -0.699540464315 122.321292652567
0.626000000000 -0.688503047260 121.911895479536
0.627000000000 -0.690280729161 121.452386817921
0.628000000000 -0.693257192202 120.976811346661
0.629000000000 -0.687981997321 120.559476093007
0.630000000000 -0.682657839598 120.109718918889
0.631000000000 -0.681792988549 119.659462857111
0.632000000000 -0.676820885201 119.213841710850
0.633000000000 -0.679219487557 118.768412373863
0.634000000000 -0.669307419974 118.353488511354
0.635000000000 -0.672574498626 117.886064352355
0.636000000000 -0.670137255003 117.512769016899
0.637000000000 -0.664752120731 117.064771580202
0.638000000000 -0.667771381621 116.639269928822
0.639000000000 -0.664249852121 116.190164466671
0.640000000000 -0.671138197478 115.746552139279
0.641000000000 -0.668594487483 115.354000593723
0.642000000000 -0.669661401423 114.987807741597
0.643000000000 -0.671159832665 114.528050918881
0.644000000000 -0.681105561991 114.134381512971
0.645000000000 -0.680746846059 113.718484183047
0.646000000000 -0.686123416134 113.326705312919
0.647000000000 -0.692471680051 112.923069120034
0.648000000000 -0.699605950456 112.519596494391
0.649000000000 -0.700761590536 112.182695990004
0.650000000000 -0.710574224910 111.789608898736
0.651000000000 -0.719412982033 111.426182488919
0.652000000000 -0.733980326666 111.031906729834
0.653000000000 -0.738984495290 110.639644497672
0.654000000000 -0.751272592226 110.324950521081
0.655000000000 -0.759321740217 109.905974838062
0.656000000000 -0.775497624087 109.514615805814
0.657000000000 -0.777326401689 109.133033378603
0.658000000000 -0.789858110953 108.658511458060
0.659000000000 -0.810032955669 108.282864527096
0.660000000000 -0.821815713710 107.884218151244
0.661000000000 -0.839062936892 107.459629257992
0.662000000000 -0.852696955948 107.026897483119
0.663000000000 -0.873483820959 106.619443805379
0.664000000000 -0.893420181000 106.130653669136
0.665000000000 -0.910566325959 105.683074427430
0.666000000000 -0.937790319611 105.252837436060
0.667000000000 -0.956813825266 104.825394817785
0.668000000000 -0.978655697749 104.369189639341
0.669000000000 -1.007308300554 103.870854183600
0.670000000000 -1.029088441253 103.471499782720
0.671000000000 -1.055130756318 102.955335727267
0.672000000000 -1.077796863293 102.519984149358
0.673000000000 -1.089495956927 102.011737358395
0.674000000000 -1.117118113138 101.516980014017
0.675000000000 -1.147794262144 101.076479840021
0.676000000000 -1.169324179976 100.681305203950
0.677000000000 -1.189242149737 100.170454537154
0.678000000000 -1.213058372778 99.572650610085
0.679000000000 -1.213970539521 99.180972879446
0.680000000000 -1.247093648879 98.505665959531
0.681000000000 -1.272734448520 98.089695242408
0.682000000000 -1.278514797129 97.566411801262
0.683000000000 -1.317733347720 97.054335651941
0.684000000000 -1.304641541538 96.491774980392
0.685000000000 -1.320800852326 95.868077094870
0.686000000000 -1.337721402235 95.371330690850
0.687000000000 -1.347440198474 94.852203155942
0.688000000000 -1.358736006271 94.163285288409
0.689000000000 -1.373775480013 93.600915095631
0.690000000000 -1.391878612905 93.022555898341
0.691000000000 -1.400983396638 92.531810428532
0.692000000000 -1.421212671800 91.927793582172
0.693000000000 -1.428451541504 91.408349528858
0.694000000000 -1.443999721688 90.868774240983
0.695000000000 -1.452764550749 90.330876116835
0.696000000000 -1.462324820811 89.816937592335
0.697000000000 -1.467771119765 89.290626863406
0.698000000000 -1.463160222108 88.744207111857
0.699000000000 -1.466270582564 88.133098186085
0.700000000000 -1.470601527939 87.583786346468
0.701000000000 -1.465978203460 87.068558366693
0.702000000000 -1.466164130133 86.518880278498
0.703000000000 -1.463626393611 85.953483308257
0.704000000000 -1.468377276137 85.388777801225
0.705000000000 -1.468076931076 84.827559487768
0.706000000000 -1.467206456512 84.232550975332
0.707000000000 -1.466702868030 83.634783829666
0.708000000000 -1.474089695782 83.041519652785
0.709000000000 -1.478253875891 82.513573347490
0.710000000000 -1.489603592041 81.872784931491
0.711000000000 -1.505395549753 81.369017013485
0.712000000000 -1.509245368305 80.799594869171
0.713000000000 -1.513957580905 80.285151915942
0.714000000000 -1.529599508256 79.671957759117
0.715000000000 -1.541659267527 79.216077084750
0.716000000000 -1.549488978945 78.631656189978
0.717000000000 -1.566999541560 78.181603897977
0.718000000000 -1.579402558285 77.678175351380
0.719000000000 -1.592431939409 77.156546076487
0.720000000000 -1.607372046198 76.663089836774
0.721000000000 -1.621672711717 76.197722713537
0.722000000000 -1.638749662548 75.760555389387
0.723000000000 -1.649705274482 75.280491199005
0.724000000000 -1.662288024736 74.783812554211
0.725000000000 -1.673219285281 74.295563601740
0.726000000000 -1.686540827046 73.782661091458
0.727000000000 -1.698055940786 73.283582743681
0.728000000000 -1.722667910951 72.758647112769
0.729000000000 -1.743090276380 72.217157173023
0.730000000000 -1.770687960792 71.690397154527
0.731000000000 -1.800319759069 71.113960284924
0.732000000000 -1.824262044309 70.612348338409
0.733000000000 -1.863913939718 70.089673094960
0.734000000000 -1.899921298864 69.581001349975
0.735000000000 -1.936725501110 69.087593181286
0.736000000000 -1.972048815449 68.610752669906
0.737000000000 -2.008799006376 68.119389875145
0.738000000000 -2.041763869072 67.656355959212
0.739000000000 -2.079701710594 67.120866509420
0.740000000000 -2.118675867701 66.669397787626
0.741000000000 -2.167868021042 66.136670894536
0.742000000000 -2.191115221806 65.604505770728
0.743000000000 -2.229199695508 65.109845674964
0.744000000000 -2.262451542129 64.580140740870
0.745000000000 -2.312967630406 64.063804591588
0.746000000000 -2.341776310640 63.520483451221
0.747000000000 -2.390459425096 62.894885589623
0.748000000000 -2.425122003071 62.328779668943
0.749000000000 -2.474202172086 61.762246576855
0.750000000000 -2.516340671581 61.181782585670
0.751000000000 -2.570189477590 60.614185117472
0.752000000000 -2.616426309300 60.089534672059
0.753000000000 -2.661995019889 59.483137739706
0.754000000000 -2.707882286931 58.927650655308
0.755000000000 -2.754946001424 58.409608013400
0.756000000000 -2.805036619721 57.837467183664
0.757000000000 -2.838298862128 57.366248329615
0.758000000000 -2.876632129671 56.844515300538
0.759000000000 -2.905136575344 56.332419143830
0.760000000000 -2.926996356764 55.746800205394
0.761000000000 -2.966972229280 55.146579208519
0.762000000000 -2.994286796288 54.549463912397
0.763000000000 -3.019634136988 53.923033931709
0.764000000000 -3.053226190729 53.274731797787
0.765000000000 -3.085288625728 52.660739097127
0.766000000000 -3.109543306342 52.012912081385
0.767000000000 -3.142238016346 51.341788527697
0.768000000000 -3.173202178491 50.678968309941
0.769000000000 -3.203256445104 50.032672102957
0.770000000000 -3.236615407197 49.308738560545
0.771000000000 -3.273998052273 48.622765912351
0.772000000000 -3.307158250903 47.924163171001
0.773000000000 -3.347069411731 47.267667670184
0.774000000000 -3.387959015344 46.551081029141
0.775000000000 -3.437907714014 45.849856763417
0.776000000000 -3.488302025815 45.182008672587
0.777000000000 -3.537180796368 44.537299905965
0.778000000000 -3.587190138892 43.875650086293
0.779000000000 -3.637470814525 43.292550280999
0.780000000000 -3.692814740570 42.720592045026
0.781000000000 -3.748084065687 42.108006027361
0.782000000000 -3.814086172441 41.524506354260
0.783000000000 -3.866743431496 40.994328143966
0.784000000000 -3.932293237030 40.503795668665
0.785000000000 -3.988439199457 40.038669458887
0.786000000000 -4.047644020657 39.587582015296
0.787000000000 -4.084300243369 39.615892171171
0.788000000000 -4.146195704717 38.837470323192
0.789000000000 -4.195622204017 38.465007110185
0.790000000000 -4.237213062361 38.169851370895
0.791000000000 -4.267974317190 37.790389962682
0.792000000000 -4.297114207804 37.534113759241
0.793000000000 -4.303644095804 37.167277682906
0.794000000000 -4.328383512948 36.700177536992
0.795000000000 -4.348516567818 36.274742275781
0.796000000000 -4.366512591658 35.772239402885
0.797000000000 -4.392945408367 35.267316879127
0.798000000000 -4.412006598620 34.742574171247
0.799000000000 -4.438230321993 34.267623524018
0.800000000000 -4.457939120656 33.907678429173
0.801000000000 -4.473602554825 33.188806253282
0.802000000000 -4.491579418909 32.692797977609
0.803000000000 -4.515838827690 31.832497618206
0.804000000000 -4.543068541126 31.691933952489
0.805000000000 -4.604249258873 30.351709958105
0.806000000000 -4.615436735428 30.096503139320
0.807000000000 -4.637483593099 29.385004811308
0.808000000000 -4.702730101346 28.623292287448
0.809000000000 -4.774083311301 27.823652852359
0.810000000000 -4.783980597663 27.050364194140
0.811000000000 -4.859571859016 26.553347990862
0.812000000000 -4.886590668787 25.558524695904
0.813000000000 -4.986336536308 25.052694065519
0.814000000000 -5.063414424036 24.079555326986
0.815000000000 -5.187025467609 23.585366494495
0.816000000000 -5.229487166641 22.775104895057
0.817000000000 -5.290910753812 22.023190726666
0.818000000000 -5.358119903908 21.452814057106
0.819000000000 -5.429014443642 20.491949380573
0.820000000000 -5.523614166841 19.775154842914
0.821000000000 -5.615078474453 19.055633918542
0.822000000000 -5.697137477836 18.289352073509
0.823000000000 -5.809176663310 17.571063057874
0.824000000000 -5.906344408949 16.836368268026
0.825000000000 -6.018547858348 16.043504216822
0.826000000000 -6.132793925602 15.500274051020
0.827000000000 -6.232788797873 14.914550084169
0.828000000000 -6.339425530311 14.324458196824
0.829000000000 -6.446244931124 13.697252478377
0.830000000000 -6.574516925597 13.186147620931
0.831000000000 -6.690389926162 12.729835981123
0.832000000000 -6.799851573163 12.439901555264
0.833000000000 -6.926009135596 12.128815012559
0.834000000000 -7.013590850022 11.670229750472
0.835000000000 -7.074759467282 11.803484261019
0.836000000000 -7.189628404012 11.198586928901
0.837000000000 -7.286279630950 10.927407234248
0.838000000000 -7.366714181979 10.639820530289
0.839000000000 -7.454387226005 10.435917321233
0.840000000000 -7.530527360824 10.276829368637
0.841000000000 -7.600746747424 10.191167740140
0.842000000000 -7.653173375130 10.024188000764
0.843000000000 -7.699199866107 9.903699617420
0.844000000000 -7.734729874228 9.745663495043
0.845000000000 -7.758993593492 9.533989162358
0.846000000000 -7.781386865805 9.321043690003
0.847000000000 -7.798204487163 9.035749731153
0.848000000000 -7.813714634241 8.663220980402
0.849000000000 -7.834791944956 8.318959934055
0.850000000000 -7.830177541908 7.787248608767
0.851000000000 -7.847510306824 7.210385480458
0.852000000000 -7.865136984007 6.661795113178
0.853000000000 -7.891426176042 5.958424661485
0.854000000000 -7.912289581478 5.391092179397
0.855000000000 -7.947642258824 4.764167604432
0.856000000000 -7.967676446520 4.122592939694
0.857000000000 -7.993289093925 3.436835194298
0.858000000000 -8.020456505242 2.718285978352
0.859000000000 -8.060130445983 1.882202791078
0.860000000000 -8.099041845127 1.014758280939
0.861000000000 -8.152377696840 0.145475682252
0.862000000000 -8.215425877198 -0.722610239972
0.863000000000 -8.281323706145 -1.593794705237
0.864000000000 -8.340346832615 -2.409920373882
0.865000000000 -8.413949552644 -3.294600121633
0.866000000000 -8.487723170531 -4.234198771900
0.867000000000 -8.562271848177 -5.204139866937
0.868000000000 -8.654215818555 -6.200502344167
0.869000000000 -8.758270670577 -7.253779011735
0.870000000000 -8.877198343907 -8.278838978545
0.871000000000 -9.013632717862 -9.265075140056
0.872000000000 -9.158843928441 -10.210137879858
0.873000000000 -9.306415774913 -11.083920251865
0.874000000000 -9.465096724275 -11.902966537175
0.875000000000 -9.614540231139 -12.644274877263
0.876000000000 -9.771149175629 -13.404406317510
0.877000000000 -9.934210037883 -14.170181205168
0.878000000000 -10.095428198430 -15.006952866091
0.879000000000 -10.279254844712 -15.863218036400
0.880000000000 -10.479531654689 -16.718721701740
0.881000000000 -10.702554812048 -17.371834140359
0.882000000000 -10.927672795006 -17.789454319654
0.883000000000 -11.168010748105 -18.245647705628
0.884000000000 -11.383879079760 -18.498344603695
0.885000000000 -11.583001543174 -18.640528664706
0.886000000000 -11.790116205095 -18.817272138493
0.887000000000 -11.979728491962 -18.978643439248
0.888000000000 -12.184814983647 -19.088131268148
0.889000000000 -12.389187802036 -19.264317726430
0.890000000000 -12.596486981510 -19.184930513396
0.891000000000 -12.790992709681 -19.140935160405
0.892000000000 -12.987085696911 -18.870606469486
0.893000000000 -13.170367691167 -18.578257349755
0.894000000000 -13.356320650660 -18.136275810383
0.895000000000 -13.511009667616 -17.427450826339
0.896000000000 -13.638623701252 -16.741662060984
0.897000000000 -13.719765039404 -16.041042354431
0.898000000000 -13.763099843337 -15.330479831098
0.899000000000 -13.768944166954 -14.781825186591
0.900000000000 -13.757173286197 -14.686979170552
0.901000000000 -13.746221921354 -14.580565996976
0.902000000000 -13.723286871101 -14.643672495832
0.903000000000 -13.706893273619 -14.777272680092
0.904000000000 -13.687428471562 -15.103407416800
0.905000000000 -13.671259843575 -15.567419178764
0.906000000000 -13.663088684829 -16.170185431337
0.907000000000 -13.653825223585 -16.765875630193
0.908000000000 -13.669001359979 -17.612968468121
0.909000000000 -13.690978779228 -18.442657386818
0.910000000000 -13.740718432540 -19.280413434833
0.911000000000 -13.797835489172 -20.188053568023
0.912000000000 -13.861792938208 -21.029982360694
0.913000000000 -13.942184258595 -21.869940639646
0.914000000000 -14.019281175324 -22.760082477997
0.915000000000 -14.094407748303 -23.636111533082
0.916000000000 -14.181174699779 -24.587836441495
0.917000000000 -14.274867944704 -25.527060804360
0.918000000000 -14.376426069589 -26.469733436581
0.919000000000 -14.477161709570 -27.515352161066
0.920000000000 -14.595586573975 -28.599137913202
0.921000000000 -14.713546505547 -29.719203118751
0.922000000000 -14.854656845552 -30.917337934020
0.923000000000 -15.027723419120 -32.172535031149
0.924000000000 -15.225706119642 -33.485926533241
0.925000000000 -15.464819895433 -35.114109182466
0.926000000000 -15.658955522491 -35.628672886809
0.927000000000 -15.990744721025 -36.714300153967
0.928000000000 -16.175070963861 -37.223062632853
0.929000000000 -16.755120568109 -39.061910639000
0.930000000000 -16.967989601258 -38.823781006699
0.931000000000 -16.981140460195 -40.513461228353
0.932000000000 -17.503543221181 -40.940351213084
0.933000000000 -17.770788057898 -41.321131149252
0.934000000000 -18.287911476336 -42.529700829829
0.935000000000 -18.640658349116 -41.176740834532
0.936000000000 -18.935684137633 -41.953067188920
0.937000000000 -19.659102617635 -40.261410496184
0.938000000000 -19.798062588211 -37.817573722039
0.939000000000 -20.319517293237 -37.024503899843
0.940000000000 -20.449163209719 -35.786899734206
0.941000000000 -20.692731442920 -34.038771688307
0.942000000000 -20.847454058567 -32.442455014322
0.943000000000 -21.049615229274 -31.123124623828
0.944000000000 -21.322930762442 -28.751247355128
0.945000000000 -21.339746557640 -27.252862361874
0.946000000000 -21.278609540940 -25.651651680240
0.947000000000 -21.223148390426 -24.226651090053
0.948000000000 -21.170137496868 -22.723208827481
0.949000000000 -21.061994419859 -22.596923740728
0.950000000000 -20.949246835143 -22.192314265003
0.951000000000 -20.864114842607 -22.239793687456
0.952000000000 -20.817009083608 -22.789998713520
0.953000000000 -20.917993123593 -23.163446679515
0.954000000000 -21.032950934150 -23.232330183229
0.955000000000 -21.055357854004 -23.601155716797
0.956000000000 -21.080246562470 -23.096785143432
0.957000000000 -21.075003735769 -23.127715338010
0.958000000000 -21.038873822826 -23.409793030192
0.959000000000 -20.933444384764 -24.402012424804
0.960000000000 -20.948822560749 -24.228609759489
0.961000000000 -20.913203343244 -25.466745219307
0.962000000000 -20.880321651764 -26.592393532818
0.963000000000 -20.933569745608 -28.186390757823
0.964000000000 -20.997743753120 -29.668276817654
0.965000000000 -21.090746203132 -31.165623419257
0.966000000000 -21.198251299979 -32.609523196043
0.967000000000 -21.290393767854 -34.245731504584
0.968000000000 -21.395167664563 -35.984572181529
0.969000000000 -21.495718121459 -38.043334620121
0.970000000000 -21.654156319848 -40.405542770378
0.971000000000 -21.861000595935 -42.995573760975
0.972000000000 -22.122922080272 -45.809745453377
0.973000000000 -22.466002146857 -48.534750438538
0.974000000000 -22.860886672694 -51.121869351180
0.975000000000 -23.304149298741 -53.581394203175
0.976000000000 -23.812027691671 -55.898565890912
0.977000000000 -24.364687781027 -57.827688844772
0.978000000000 -24.917030161097 -59.561427838162
0.979000000000 -25.482581731362 -60.989622905857
0.980000000000 -26.120599572915 -62.040742925979
0.981000000000 -26.697607886367 -62.788943307807
0.982000000000 -27.330938295737 -63.356009602565
0.983000000000 -27.899902683338 -63.620882405306
0.984000000000 -28.474741652150 -64.049002267115
0.985000000000 -29.057392610284 -63.943205374068
0.986000000000 -29.595630991868 -63.920834649275
0.987000000000 -30.082200639481 -64.102090996354
0.988000000000 -30.592389047654 -65.390494119342
